(130.255555) can0 20000080#0000040000000000
(130.255794) can0 20000080#0000040000000000
(130.255829) can0 200#1FC00010000301 R
(130.255841) can0 20000080#0000000000000000
(130.456431) can0 20000080#0000040000000000
(130.456670) can0 20000080#0000040000000000
(130.456706) can0 710#0210035555555555 R
(130.456717) can0 20000080#0000000000000000
(130.459189) can0 77A#065003003201F4AA R
(130.592702) can0 710#03222A2A55555555 R
(130.593743) can0 77A#037F2231AAAAAAAA R
(130.621679) can0 710#0322F18755555555 R
(130.622381) can0 77A#100E62F187344B4C R
(130.624621) can0 710#3000015555555555 R
(130.624865) can0 77A#2139303734363845 R
(130.628768) can0 77A#2220AAAAAAAAAAAA R
(130.653668) can0 710#0322F19155555555 R
(130.654266) can0 77A#100E62F191344B31 R
(130.656601) can0 710#3000015555555555 R
(130.656938) can0 77A#2139303734363843 R
(130.659846) can0 77A#2220AAAAAAAAAAAA R
(130.782406) can0 710#A8 R
(130.924649) can0 20000080#0000040000000000
(130.924893) can0 20000080#0000040000000000
(130.924928) can0 700#032204A355555555 R
(130.924940) can0 20000080#0000000000000000
(130.929052) can0 77A#10236204A3F1597C R
(130.929866) can0 7B4#046204A303AAAAAA R
(130.931059) can0 710#3000055555555555 R
(130.931322) can0 77A#21588800000002DC R
(130.931806) can0 7B5#046204A303AAAAAA R
(130.937109) can0 7DD#066204A3414800AA R
(130.938656) can0 778#046204A319AAAAAA R
(130.939746) can0 77A#2288008100C80011 R
(130.942811) can0 17FE0080#046204A301000000 R
(130.943472) can0 7E8#046204A303000000 R
(130.946880) can0 77A#230C007000000000 R
(130.955860) can0 77A#2400000000000067 R
(130.964723) can0 77A#2500AAAAAAAAAAAA R
(131.642378) can0 20000080#0000040000000000
(131.642622) can0 20000080#0000040000000000
(131.642658) can0 700#03222A2E55555555 R
(131.642669) can0 20000080#0000000000000000
(131.643945) can0 77A#1103622A2E100100 R
(131.645195) can0 710#3000065555555555 R
(131.645466) can0 77A#2103040506070800 R
(131.649168) can0 7B4#05622A2E4A3EAAAA R
(131.651261) can0 7B5#05622A2E4B3FAAAA R
(131.656136) can0 7DD#1017622A2E73186F R
(131.656564) can0 77A#22000B0C000E0F00 R
(131.657689) can0 17FE0080#06622A2E80919200 R
(131.658077) can0 7E8#05622A2E76850000 R
(131.658408) can0 778#100B622A2E0E8283 R
(131.658799) can0 773#3000065555555555 R
(131.661188) can0 70E#3000065555555555 R
(131.663580) can0 7DD#216D700102A7A8AA R
(131.664225) can0 778#2196979B9899AAAA R
(131.664516) can0 77A#2300121314151600 R
(131.671793) can0 7DD#22ABA5A60304C300 R
(131.675563) can0 77A#240000001B1C001E R
(131.679952) can0 7DD#23000000AAAAAAAA R
(131.685511) can0 77A#2500000000232400 R
(131.695505) can0 77A#26002700002A2B2C R
(131.705544) can0 77A#272D2E0030310000 R
(131.716553) can0 77A#2800000000000000 R
(131.725490) can0 77A#293B000000000041 R
(131.735482) can0 77A#2A42434400464700 R
(131.745522) can0 77A#2B494A4B4C4D4E4F R
(131.756530) can0 77A#2C00000053000000 R
(131.765476) can0 77A#2D57005900000000 R
(131.775476) can0 77A#2E00006061006364 R
(131.785526) can0 77A#2F00006700696A00 R
(131.795599) can0 77A#2000000000000072 R
(131.805514) can0 77A#2173000076777800 R
(131.815472) can0 77A#22007B7C00000080 R
(131.825455) can0 77A#2300000084000087 R
(131.836494) can0 77A#2488898A8B00008E R
(131.845446) can0 77A#258F000000939495 R
(131.856506) can0 77A#260000000000009C R
(131.865443) can0 77A#279D9E00A0000000 R
(131.876500) can0 77A#2800000000000000 R
(131.885432) can0 77A#290000ADAEAFB000 R
(131.895474) can0 77A#2A000000B500B7B8 R
(131.905480) can0 77A#2B00BA0000000000 R
(131.916478) can0 77A#2C00000000C4C5C6 R
(131.926479) can0 77A#2DC7C80000000000 R
(131.935421) can0 77A#2E00000000000000 R
(131.945416) can0 77A#2F00000000000000 R
(131.955511) can0 77A#2000000000000000 R
(131.965416) can0 77A#2100000000000000 R
(131.977890) can0 77A#22000000000000F0 R
(131.988343) can0 77A#23F1F2F300F5F6F7 R
(131.999397) can0 77A#2400000000000000 R
(132.008264) can0 77A#2500AAAAAAAAAAAA R
(133.153709) can0 20000080#0000040000000000
(133.153953) can0 20000080#0000040000000000
(133.153989) can0 700#03222A2655555555 R
(133.154001) can0 20000080#0000000000000000
(133.157800) can0 778#04622A2619AAAAAA R
(133.158086) can0 7B4#04622A2603AAAAAA R
(133.158493) can0 77A#1023622A26F1597C R
(133.160404) can0 7B5#04622A2603AAAAAA R
(133.160637) can0 710#3000055555555555 R
(133.160934) can0 77A#21588800000002DC R
(133.167921) can0 7DD#06622A26414800AA R
(133.170019) can0 77A#2288008100C80011 R
(133.171977) can0 17FE0080#04622A2601000000 R
(133.172606) can0 7E8#04622A2603000000 R
(133.180016) can0 77A#230C007000000000 R
(133.190100) can0 77A#2400000000000067 R
(133.200079) can0 77A#2500AAAAAAAAAAAA R
(133.361649) can0 20000080#0000040000000000
(133.361894) can0 20000080#0000040000000000
(133.361930) can0 700#03222A2855555555 R
(133.361941) can0 20000080#0000000000000000
(133.363522) can0 77A#1023622A28B14978 R
(133.365467) can0 710#3000055555555555 R
(133.365937) can0 77A#21480800000000C0 R
(133.368388) can0 7B4#04622A2800AAAAAA R
(133.370364) can0 7B5#04622A2800AAAAAA R
(133.374951) can0 77A#2280000100480001 R
(133.375281) can0 7DD#06622A28004000AA R
(133.377065) can0 17FE0080#04622A2801000000 R
(133.377433) can0 7E8#04622A2801000000 R
(133.377660) can0 778#04622A2809AAAAAA R
(133.384955) can0 77A#230C001000000000 R
(133.393868) can0 77A#2400000000000024 R
(133.403858) can0 77A#2500AAAAAAAAAAAA R
(238.610367) can0 20000080#0000040000000000
(238.610601) can0 20000080#0000040000000000
(238.610637) can0 200#1FC00010000301 R
(238.610649) can0 20000080#0000000000000000
(238.811260) can0 20000080#0000040000000000
(238.811505) can0 20000080#0000040000000000
(238.811541) can0 710#0210035555555555 R
(238.811553) can0 20000080#0000000000000000
(238.812233) can0 77A#065003003201F4AA R
(238.934558) can0 710#03222A2A55555555 R
(238.936438) can0 77A#037F2231AAAAAAAA R
(238.963536) can0 710#0322F18755555555 R
(238.964233) can0 77A#100E62F187344B4C R
(238.966474) can0 710#3000015555555555 R
(238.966769) can0 77A#2139303734363845 R
(238.968574) can0 77A#2220AAAAAAAAAAAA R
(238.996517) can0 710#0322F19155555555 R
(238.997021) can0 77A#100E62F191344B31 R
(238.999450) can0 710#3000015555555555 R
(238.999710) can0 77A#2139303734363843 R
(239.002637) can0 77A#2220AAAAAAAAAAAA R
(239.128269) can0 710#A8 R
(239.269493) can0 20000080#0000040000000000
(239.269732) can0 20000080#0000040000000000
(239.269767) can0 700#032204A355555555 R
(239.269779) can0 20000080#0000000000000000
(239.271801) can0 77A#10236204A3F1597C R
(239.273322) can0 710#3000055555555555 R
(239.273594) can0 77A#21588800000002DC R
(239.275376) can0 7B5#046204A303AAAAAA R
(239.276248) can0 778#046204A319AAAAAA R
(239.276476) can0 7B4#046204A303AAAAAA R
(239.279550) can0 77A#2288008100C80011 R
(239.285221) can0 17FE0080#046204A301000000 R
(239.285814) can0 7E8#046204A303000000 R
(239.286545) can0 77A#230C007000000000 R
(239.287712) can0 7DD#066204A3414800AA R
(239.293505) can0 77A#2400000000000067 R
(239.299510) can0 77A#2500AAAAAAAAAAAA R
(239.991194) can0 20000080#0000040000000000
(239.991425) can0 20000080#0000040000000000
(239.991460) can0 700#03222A2E55555555 R
(239.991472) can0 20000080#0000000000000000
(239.992553) can0 77A#1103622A2E100100 R
(239.994001) can0 710#3000065555555555 R
(239.994274) can0 77A#2103040506070800 R
(239.995113) can0 7B5#05622A2E4B3FAAAA R
(239.995802) can0 7B4#05622A2E4A3EAAAA R
(239.996057) can0 778#100B622A2E0E8283 R
(239.998002) can0 70E#3000065555555555 R
(240.002256) can0 77A#22000B0C000E0F00 R
(240.002479) can0 778#2196979B9899AAAA R
(240.007397) can0 7DD#1017622A2E73186F R
(240.008994) can0 773#3000065555555555 R
(240.009257) can0 77A#2300121314151600 R
(240.010040) can0 17FE0080#06622A2E80919200 R
(240.010391) can0 7E8#05622A2E76850000 R
(240.011491) can0 7DD#216D700102A7A8AA R
(240.017275) can0 77A#240000001B1C001E R
(240.019270) can0 7DD#22ABA5A60304C300 R
(240.024235) can0 77A#2500000000232400 R
(240.027877) can0 7DD#23000000AAAAAAAA R
(240.032301) can0 77A#26002700002A2B2C R
(240.039236) can0 77A#272D2E0030310000 R
(240.047372) can0 77A#2800000000000000 R
(240.056260) can0 77A#293B000000000041 R
(240.064204) can0 77A#2A42434400464700 R
(240.072354) can0 77A#2B494A4B4C4D4E4F R
(240.080632) can0 77A#2C00000053000000 R
(240.088173) can0 77A#2D57005900000000 R
(240.096233) can0 77A#2E00006061006364 R
(240.104195) can0 77A#2F00006700696A00 R
(240.112447) can0 77A#2000000000000072 R
(240.120660) can0 77A#2173000076777800 R
(240.128160) can0 77A#22007B7C00000080 R
(240.136224) can0 77A#2300000084000087 R
(240.144175) can0 77A#2488898A8B00008E R
(240.152227) can0 77A#258F000000939495 R
(240.159197) can0 77A#260000000000009C R
(240.167268) can0 77A#279D9E00A0000000 R
(240.175142) can0 77A#2800000000000000 R
(240.183126) can0 77A#290000ADAEAFB000 R
(240.190667) can0 77A#2A000000B500B7B8 R
(240.198124) can0 77A#2B00BA0000000000 R
(240.206175) can0 77A#2C00000000C4C5C6 R
(240.214151) can0 77A#2DC7C80000000000 R
(240.222313) can0 77A#2E00000000000000 R
(240.230649) can0 77A#2F00000000000000 R
(240.238108) can0 77A#2000000000000000 R
(240.246168) can0 77A#2100000000000000 R
(240.254141) can0 77A#22000000000000F0 R
(240.262265) can0 77A#23F1F2F300F5F6F7 R
(240.270787) can0 77A#2400000000000000 R
(240.278071) can0 77A#2500AAAAAAAAAAAA R
(241.507637) can0 20000080#0000040000000000
(241.507885) can0 20000080#0000040000000000
(241.507921) can0 700#03222A2655555555 R
(241.507933) can0 20000080#0000000000000000
(241.510355) can0 77A#1023622A26F1597C R
(241.512467) can0 710#3000055555555555 R
(241.512756) can0 77A#21588800000002DC R
(241.514025) can0 7B5#04622A2603AAAAAA R
(241.515193) can0 7B4#04622A2603AAAAAA R
(241.515508) can0 778#04622A2619AAAAAA R
(241.515741) can0 7DD#06622A26414800AA R
(241.518826) can0 77A#2288008100C80011 R
(241.524512) can0 17FE0080#04622A2601000000 R
(241.525004) can0 7E8#04622A2603000000 R
(241.525813) can0 77A#230C007000000000 R
(241.532753) can0 77A#2400000000000067 R
(241.538795) can0 77A#2500AAAAAAAAAAAA R
(241.730542) can0 20000080#0000040000000000
(241.730782) can0 20000080#0000040000000000
(241.730817) can0 700#03222A2855555555 R
(241.730829) can0 20000080#0000000000000000
(241.731771) can0 77A#1023622A28B14978 R
(241.733355) can0 710#3000055555555555 R
(241.733645) can0 77A#21480800000000C0 R
(241.733878) can0 7B5#04622A2800AAAAAA R
(241.735150) can0 7B4#04622A2800AAAAAA R
(241.735379) can0 778#04622A2809AAAAAA R
(241.740176) can0 77A#2280000100480001 R
(241.746787) can0 77A#230C001000000000 R
(241.748001) can0 7DD#06622A28004000AA R
(241.749466) can0 17FE0080#04622A2801000000 R
(241.749844) can0 7E8#04622A2801000000 R
(241.754653) can0 77A#2400000000000024 R
(241.761668) can0 77A#2500AAAAAAAAAAAA R
(306.792633) can0 20000080#0000040000000000
(306.792871) can0 20000080#0000040000000000
(306.792907) can0 200#1FC00010000301 R
(306.792919) can0 20000080#0000000000000000
(306.993945) can0 20000080#0000040000000000
(306.994186) can0 20000080#0000040000000000
(306.994222) can0 710#0210035555555555 R
(306.994234) can0 20000080#0000000000000000
(306.996493) can0 77A#065003003201F4AA R
(307.131324) can0 710#0322F18755555555 R
(307.131930) can0 77A#100E62F187344B4C R
(307.134262) can0 710#3000015555555555 R
(307.134514) can0 77A#2139303734363845 R
(307.136841) can0 77A#2220AAAAAAAAAAAA R
(307.163341) can0 710#0322F19155555555 R
(307.165602) can0 77A#100E62F191344B31 R
(307.167276) can0 710#3000015555555555 R
(307.167702) can0 77A#2139303734363843 R
(307.171101) can0 77A#2220AAAAAAAAAAAA R
(307.291188) can0 710#A8 R
(336.449197) can0 20000080#0000040000000000
(336.449426) can0 20000080#0000040000000000
(336.449461) can0 200#FE2314FF005555 R
(336.449473) can0 20000080#0000000000000000
(336.468643) can0 200#FE2314FF00AAAA R
(336.488635) can0 200#FE2314FF005555 R
(336.508624) can0 200#FE2314FF00AAAA R
(336.528608) can0 200#FE2314FF005555 R
(336.653112) can0 20000080#0000040000000000
(336.653352) can0 20000080#0000040000000000
(336.653388) can0 700#0210035555555555 R
(336.653400) can0 20000080#0000000000000000
(336.655312) can0 785#065003003201F4AA R
(336.655762) can0 791#065003003201F4AA R
(336.656061) can0 7B4#065003003201F4AA R
(336.656297) can0 77A#065003003201F4AA R
(336.658840) can0 17FE008B#065003003201F4AA R
(336.659610) can0 786#065003003201F4AA R
(336.660007) can0 17FE008A#065003003201F4AA R
(336.660327) can0 7B8#065003003201F4AA R
(336.660564) can0 775#065003003201F4AA R
(336.660807) can0 7BD#0650030032012CAA R
(336.661376) can0 7B5#065003003201F4AA R
(336.662839) can0 776#065003003201F400 R
(336.663735) can0 7C1#065003003201F400 R
(336.663968) can0 7AB#065003003201F4AA R
(336.664254) can0 17FE009C#065003003201F4AA R
(336.664505) can0 7B6#065003003201F4AA R
(336.664732) can0 77E#065003003201F4AA R
(336.665152) can0 7B9#065003003201F400 R
(336.665434) can0 17FE009D#065003003201F400 R
(336.665682) can0 778#065003003201F4AA R
(336.667607) can0 77C#065003003201F400 R
(336.667907) can0 17FE0080#065003003201F400 R
(336.668148) can0 780#065003003201F400 R
(336.668395) can0 7CA#065003003201F400 R
(336.668638) can0 77D#065003001E00FA00 R
(336.668878) can0 7E8#065003001E01E000 R
(336.669163) can0 17FE0097#065003003201F4AA R
(336.669441) can0 17FE0096#065003003201F4AA R
(336.669681) can0 77F#065003003201F400 R
(336.669928) can0 7DD#037F1078AAAAAAAA R
(336.670163) can0 7E9#065003003201F400 R
(336.670450) can0 17FE009E#065003003201F400 R
(336.671149) can0 17FE0084#065003003201F4AA R
(336.673029) can0 788#065003003201F400 R
(336.678639) can0 17FE0085#065003003201F400 R
(336.678920) can0 17FE00A5#065003003201F4AA R
(336.686892) can0 7D1#065003003201F4AA R
(336.695678) can0 7A9#065003076C01F4AA R
(336.700628) can0 7A8#065003076C01F4AA R
(336.701442) can0 7DD#065003003201F4AA R
(337.657693) can0 20000080#0000040000000000
(337.657941) can0 20000080#0000040000000000
(337.657977) can0 700#023E805555555555 R
(337.657988) can0 20000080#0000000000000000
(338.669275) can0 20000080#0000040000000000
(338.669523) can0 20000080#0000040000000000
(338.669559) can0 700#0414FFFFFF555555 R
(338.669570) can0 20000080#0000000000000000
(338.672973) can0 7AB#0154AAAAAAAAAAAA R
(338.674158) can0 7B6#0154AAAAAAAAAAAA R
(338.674677) can0 77E#0154AAAAAAAAAAAA R
(338.675160) can0 791#0154AAAAAAAAAAAA R
(338.675393) can0 7B4#0154AAAAAAAAAAAA R
(338.678445) can0 17FE008B#0154AAAAAAAAAAAA R
(338.679505) can0 7B8#0154AAAAAAAAAAAA R
(338.679780) can0 17FE008A#0154AAAAAAAAAAAA R
(338.680010) can0 775#0154AAAAAAAAAAAA R
(338.680230) can0 786#0154AAAAAAAAAAAA R
(338.680455) can0 7BD#0154AAAAAAAAAAAA R
(338.680694) can0 7B5#0154AAAAAAAAAAAA R
(338.681172) can0 7DD#037F1478AAAAAAAA R
(338.681447) can0 17FE0084#0154AAAAAAAAAAAA R
(338.681695) can0 7D1#0154AAAAAAAAAAAA R
(338.682148) can0 776#0154000000000000 R
(338.684403) can0 17FE009D#0154000000000000 R
(338.685590) can0 778#0154AAAAAAAAAAAA R
(338.686699) can0 785#0154AAAAAAAAAAAA R
(338.686951) can0 77C#0154000000000000 R
(338.687248) can0 17FE0080#0154000000000000 R
(338.687498) can0 780#0154000000000000 R
(338.687745) can0 7CA#0154000000000000 R
(338.689444) can0 7B9#0154000000000000 R
(338.689740) can0 17FE009E#0154000000000000 R
(338.690012) can0 17FE0097#0154AAAAAAAAAAAA R
(338.690420) can0 17FE0096#0154AAAAAAAAAAAA R
(338.698032) can0 17FE00A5#037F1478AAAAAAAA R
(338.709489) can0 78D#037F147855555555 R
(338.709710) can0 77A#037F1478AAAAAAAA R
(338.712308) can0 788#037F147800000000 R
(338.712564) can0 7C1#037F147800000000 R
(338.714681) can0 7A9#0154AAAAAAAAAAAA R
(338.718197) can0 17FE00A5#0154AAAAAAAAAAAA R
(338.719539) can0 7A8#0154AAAAAAAAAAAA R
(338.728454) can0 77F#037F147800000000 R
(338.799634) can0 78D#0154555555555555 R
(338.932306) can0 788#0154000000000000 R
(338.984559) can0 77A#0154AAAAAAAAAAAA R
(339.188434) can0 77F#0154000000000000 R
(339.572553) can0 7C1#0154000000000000 R
(339.681189) can0 20000080#0000040000000000
(339.681429) can0 20000080#0000040000000000
(339.681465) can0 700#023E805555555555 R
(339.681476) can0 20000080#0000000000000000
(340.377092) can0 7DD#0154AAAAAAAAAAAA R
(340.687759) can0 20000080#0000040000000000
(340.687998) can0 20000080#0000040000000000
(340.688033) can0 700#0104555555555555 R
(340.688045) can0 20000080#0000000000000000
(340.693702) can0 17FE009C#0144AAAAAAAAAAAA R
(340.706396) can0 77C#0144000000000000 R
(340.707272) can0 7E9#0144000000000000 R
(340.722050) can0 77D#037F047800000000 R
(340.722300) can0 7E8#037F047800000000 R
(340.727428) can0 17FE0085#0144000000000000 R
(340.797235) can0 77D#0144000000000000 R
(341.152097) can0 7E8#0144000000000000 R
(355.396925) can0 20000080#0000040000000000
(355.397163) can0 20000080#0000040000000000
(355.397201) can0 200#1FC00010000301 R
(355.397212) can0 20000080#0000000000000000
(355.598449) can0 20000080#0000040000000000
(355.598693) can0 20000080#0000040000000000
(355.598728) can0 710#0210035555555555 R
(355.598740) can0 20000080#0000000000000000
(355.600230) can0 77A#065003003201F4AA R
(355.732723) can0 710#03222A2A55555555 R
(355.733209) can0 77A#037F2231AAAAAAAA R
(355.762707) can0 710#0322F18755555555 R
(355.764250) can0 77A#100E62F187344B4C R
(355.766643) can0 710#3000015555555555 R
(355.767602) can0 77A#2139303734363845 R
(355.769530) can0 77A#2220AAAAAAAAAAAA R
(355.794694) can0 710#0322539B55555555 R
(355.795285) can0 77A#0762539B01001401 R
(355.826667) can0 710#0322F19155555555 R
(355.828634) can0 77A#100E62F191344B31 R
(355.830611) can0 710#3000015555555555 R
(355.830857) can0 77A#2139303734363843 R
(355.833480) can0 77A#2220AAAAAAAAAAAA R
(355.957406) can0 710#A8 R
(356.100047) can0 20000080#0000040000000000
(356.100289) can0 20000080#0000040000000000
(356.100325) can0 700#032204A355555555 R
(356.100337) can0 20000080#0000000000000000
(356.101142) can0 77A#10236204A3F1597C R
(356.102869) can0 710#3000055555555555 R
(356.103130) can0 77A#21588800000002DC R
(356.105086) can0 7B4#046204A303AAAAAA R
(356.110377) can0 77A#2288008100C80011 R
(356.111690) can0 7B5#046204A303AAAAAA R
(356.116801) can0 17FE0080#046204A301000000 R
(356.117197) can0 7E8#046204A303000000 R
(356.117627) can0 77A#230C007000000000 R
(356.119056) can0 778#046204A319AAAAAA R
(356.120019) can0 7DD#066204A3414800AA R
(356.124395) can0 77A#2400000000000067 R
(356.131809) can0 77A#2500AAAAAAAAAAAA R
(356.818709) can0 20000080#0000040000000000
(356.818949) can0 20000080#0000040000000000
(356.818984) can0 700#03222A2E55555555 R
(356.818996) can0 20000080#0000000000000000
(356.819736) can0 77A#1103622A2E100100 R
(356.820817) can0 7B5#05622A2E4B3FAAAA R
(356.822124) can0 710#3000065555555555 R
(356.822385) can0 77A#2103040506070800 R
(356.824652) can0 7B4#05622A2E4A3EAAAA R
(356.831381) can0 77A#22000B0C000E0F00 R
(356.832249) can0 7DD#1017622A2E73186F R
(356.834078) can0 773#3000065555555555 R
(356.836472) can0 17FE0080#06622A2E80919200 R
(356.836849) can0 7E8#05622A2E76850000 R
(356.838011) can0 778#100B622A2E0E8283 R
(356.839149) can0 7DD#216D700102A7A8AA R
(356.840064) can0 77A#2300121314151600 R
(356.841698) can0 70E#3000065555555555 R
(356.844358) can0 778#2196979B9899AAAA R
(356.847085) can0 7DD#22ABA5A60304C300 R
(356.848116) can0 77A#240000001B1C001E R
(356.854689) can0 7DD#23000000AAAAAAAA R
(356.855087) can0 77A#2500000000232400 R
(356.863060) can0 77A#26002700002A2B2C R
(356.871526) can0 77A#272D2E0030310000 R
(356.880064) can0 77A#2800000000000000 R
(356.889078) can0 77A#293B000000000041 R
(356.898111) can0 77A#2A42434400464700 R
(356.905056) can0 77A#2B494A4B4C4D4E4F R
(356.913040) can0 77A#2C00000053000000 R
(356.921378) can0 77A#2D57005900000000 R
(356.930031) can0 77A#2E00006061006364 R
(356.938080) can0 77A#2F00006700696A00 R
(356.945050) can0 77A#2000000000000072 R
(356.953016) can0 77A#2173000076777800 R
(356.961414) can0 77A#22007B7C00000080 R
(356.970011) can0 77A#2300000084000087 R
(356.979054) can0 77A#2488898A8B00008E R
(356.987171) can0 77A#258F000000939495 R
(356.994025) can0 77A#260000000000009C R
(357.002082) can0 77A#279D9E00A0000000 R
(357.010006) can0 77A#2800000000000000 R
(357.019035) can0 77A#290000ADAEAFB000 R
(357.026988) can0 77A#2A000000B500B7B8 R
(357.034005) can0 77A#2B00BA0000000000 R
(357.042102) can0 77A#2C00000000C4C5C6 R
(357.049980) can0 77A#2DC7C80000000000 R
(357.058033) can0 77A#2E00000000000000 R
(357.065147) can0 77A#2F00000000000000 R
(357.072983) can0 77A#2000000000000000 R
(357.081431) can0 77A#2100000000000000 R
(357.089970) can0 77A#22000000000000F0 R
(357.099010) can0 77A#23F1F2F300F5F6F7 R
(357.107002) can0 77A#2400000000000000 R
(357.113959) can0 77A#2500AAAAAAAAAAAA R
(358.333105) can0 20000080#0000040000000000
(358.333346) can0 20000080#0000040000000000
(358.333381) can0 700#03222A2655555555 R
(358.333398) can0 20000080#0000000000000000
(358.334174) can0 77A#1023622A26F1597C R
(358.335916) can0 710#3000055555555555 R
(358.336744) can0 77A#21588800000002DC R
(358.337719) can0 778#04622A2619AAAAAA R
(358.339986) can0 7B5#04622A2603AAAAAA R
(358.342540) can0 77A#2288008100C80011 R
(358.343890) can0 7B4#04622A2603AAAAAA R
(358.349548) can0 77A#230C007000000000 R
(358.350303) can0 7DD#06622A26414800AA R
(358.350765) can0 17FE0080#04622A2601000000 R
(358.351439) can0 7E8#04622A2603000000 R
(358.356820) can0 77A#2400000000000067 R
(358.363547) can0 77A#2500AAAAAAAAAAAA R
(358.540004) can0 20000080#0000040000000000
(358.540244) can0 20000080#0000040000000000
(358.540280) can0 700#03222A2855555555 R
(358.540297) can0 20000080#0000000000000000
(358.542266) can0 77A#1023622A28114000 R
(358.543709) can0 7B4#04622A2800AAAAAA R
(358.544751) can0 710#3000055555555555 R
(358.545021) can0 77A#2100080000000080 R
(358.549918) can0 7B5#04622A2800AAAAAA R
(358.550161) can0 7DD#06622A28000000AA R
(358.551606) can0 77A#2280000000000000 R
(358.555868) can0 17FE0080#04622A2800000000 R
(358.556258) can0 7E8#04622A2800000000 R
(358.557624) can0 778#04622A2801AAAAAA R
(358.558491) can0 77A#2308001000000000 R
(358.564600) can0 77A#2400000000000000 R
(358.572435) can0 77A#2500AAAAAAAAAAAA R
(389.989854) can0 20000080#0000040000000000
(389.990093) can0 20000080#0000040000000000
(389.990128) can0 200#1FC00010000301 R
(389.990140) can0 20000080#0000000000000000
(390.191556) can0 20000080#0000040000000000
(390.191795) can0 20000080#0000040000000000
(390.191831) can0 710#0210035555555555 R
(390.191842) can0 20000080#0000000000000000
(390.193242) can0 77A#065003003201F4AA R
(390.315837) can0 710#0322F18755555555 R
(390.318739) can0 77A#100E62F187344B4C R
(390.320773) can0 710#3000015555555555 R
(390.321506) can0 77A#2139303734363845 R
(390.323626) can0 77A#2220AAAAAAAAAAAA R
(390.346820) can0 710#0322539B55555555 R
(390.349676) can0 77A#0762539B01001401 R
(390.379809) can0 710#0322F19155555555 R
(390.380773) can0 77A#100E62F191344B31 R
(390.382739) can0 710#3000015555555555 R
(390.382991) can0 77A#2139303734363843 R
(390.385402) can0 77A#2220AAAAAAAAAAAA R
(390.507566) can0 710#A8 R
(392.411350) can0 20000080#0000040000000000
(392.411586) can0 20000080#0000040000000000
(392.411621) can0 200#FE2314FF005555 R
(392.411633) can0 20000080#0000000000000000
(392.430737) can0 200#FE2314FF00AAAA R
(392.450729) can0 200#FE2314FF005555 R
(392.470718) can0 200#FE2314FF00AAAA R
(392.490720) can0 200#FE2314FF005555 R
(392.621266) can0 20000080#0000040000000000
(392.621512) can0 20000080#0000040000000000
(392.621547) can0 700#0210035555555555 R
(392.621559) can0 20000080#0000000000000000
(392.622291) can0 77A#065003003201F4AA R
(392.622886) can0 785#065003003201F4AA R
(392.623515) can0 17FE009C#065003003201F4AA R
(392.623768) can0 791#065003003201F4AA R
(392.624009) can0 7B5#065003003201F4AA R
(392.624529) can0 7B6#065003003201F4AA R
(392.624994) can0 7AB#065003003201F4AA R
(392.626429) can0 7B4#065003003201F4AA R
(392.627117) can0 778#065003003201F4AA R
(392.627399) can0 17FE008B#065003003201F4AA R
(392.629141) can0 786#065003003201F4AA R
(392.629458) can0 17FE0097#065003003201F4AA R
(392.629707) can0 77E#065003003201F4AA R
(392.629942) can0 775#065003003201F4AA R
(392.630513) can0 17FE0096#065003003201F4AA R
(392.632223) can0 7BD#0650030032012CAA R
(392.632509) can0 17FE008A#065003003201F4AA R
(392.632858) can0 7B8#065003003201F4AA R
(392.633832) can0 78D#065003003201F455 R
(392.635290) can0 776#065003003201F400 R
(392.636118) can0 7C1#065003003201F400 R
(392.636414) can0 17FE0084#065003003201F4AA R
(392.637708) can0 17FE009D#065003003201F400 R
(392.639038) can0 7DD#037F1078AAAAAAAA R
(392.639529) can0 17FE00A5#065003003201F4AA R
(392.640159) can0 77C#065003003201F400 R
(392.640401) can0 780#065003003201F400 R
(392.640696) can0 17FE0080#065003003201F400 R
(392.640937) can0 77D#065003001E00FA00 R
(392.641179) can0 7CA#065003003201F400 R
(392.641429) can0 7E8#065003001E01E000 R
(392.641670) can0 7E9#065003003201F400 R
(392.641912) can0 77F#065003003201F400 R
(392.642154) can0 7D1#065003003201F4AA R
(392.642750) can0 17FE009E#065003003201F400 R
(392.645527) can0 788#065003003201F400 R
(392.645953) can0 17FE0085#065003003201F400 R
(392.647658) can0 7B9#065003003201F400 R
(392.668149) can0 7DD#065003003201F4AA R
(392.668466) can0 7A9#065003076C01F4AA R
(392.669920) can0 7A8#065003076C01F4AA R
(393.639801) can0 20000080#0000040000000000
(393.640046) can0 20000080#0000040000000000
(393.640082) can0 700#023E805555555555 R
(393.640094) can0 20000080#0000000000000000
(394.648468) can0 20000080#0000040000000000
(394.648723) can0 20000080#0000040000000000
(394.648759) can0 700#0414FFFFFF555555 R
(394.648771) can0 20000080#0000000000000000
(394.652116) can0 17FE008A#0154AAAAAAAAAAAA R
(394.652340) can0 7B8#0154AAAAAAAAAAAA R
(394.652571) can0 785#0154AAAAAAAAAAAA R
(394.652794) can0 791#0154AAAAAAAAAAAA R
(394.653024) can0 7B5#0154AAAAAAAAAAAA R
(394.653249) can0 7BD#0154AAAAAAAAAAAA R
(394.655525) can0 7B4#0154AAAAAAAAAAAA R
(394.655755) can0 7AB#0154AAAAAAAAAAAA R
(394.655981) can0 7B6#0154AAAAAAAAAAAA R
(394.657266) can0 17FE008B#0154AAAAAAAAAAAA R
(394.658806) can0 786#0154AAAAAAAAAAAA R
(394.659252) can0 77E#0154AAAAAAAAAAAA R
(394.659788) can0 775#0154AAAAAAAAAAAA R
(394.662034) can0 17FE009E#0154000000000000 R
(394.662258) can0 7DD#037F1478AAAAAAAA R
(394.664449) can0 77C#0154000000000000 R
(394.664697) can0 776#0154000000000000 R
(394.664987) can0 17FE0080#0154000000000000 R
(394.665239) can0 780#0154000000000000 R
(394.665490) can0 7CA#0154000000000000 R
(394.666424) can0 17FE0084#0154AAAAAAAAAAAA R
(394.666651) can0 778#0154AAAAAAAAAAAA R
(394.666950) can0 17FE009D#0154000000000000 R
(394.667475) can0 7D1#0154AAAAAAAAAAAA R
(394.671049) can0 17FE0097#0154AAAAAAAAAAAA R
(394.671635) can0 17FE0096#0154AAAAAAAAAAAA R
(394.672002) can0 7B9#0154000000000000 R
(394.678654) can0 17FE00A5#037F1478AAAAAAAA R
(394.683070) can0 78D#037F147855555555 R
(394.684860) can0 788#037F147800000000 R
(394.689811) can0 77A#037F1478AAAAAAAA R
(394.695066) can0 7C1#037F147800000000 R
(394.697200) can0 7A9#0154AAAAAAAAAAAA R
(394.698643) can0 17FE00A5#0154AAAAAAAAAAAA R
(394.698876) can0 7A8#0154AAAAAAAAAAAA R
(394.700967) can0 77F#037F147800000000 R
(394.733049) can0 78D#0154555555555555 R
(394.834750) can0 788#0154000000000000 R
(394.971351) can0 77A#0154AAAAAAAAAAAA R
(395.074928) can0 7C1#0154000000000000 R
(395.160759) can0 77F#0154000000000000 R
(395.656031) can0 20000080#0000040000000000
(395.656278) can0 20000080#0000040000000000
(395.656314) can0 700#023E805555555555 R
(395.656326) can0 20000080#0000000000000000
(396.513233) can0 7DD#0154AAAAAAAAAAAA R
(396.664601) can0 20000080#0000040000000000
(396.664845) can0 20000080#0000040000000000
(396.664881) can0 700#0104555555555555 R
(396.664892) can0 20000080#0000000000000000
(396.672293) can0 17FE009C#0144AAAAAAAAAAAA R
(396.678696) can0 77C#0144000000000000 R
(396.679371) can0 7E9#0144000000000000 R
(396.689415) can0 77D#0144000000000000 R
(396.694388) can0 7E8#037F047800000000 R
(396.694679) can0 17FE0085#0144000000000000 R
(396.994285) can0 7E8#0144000000000000 R
(434.321634) can0 20000080#0000040000000000
(434.321872) can0 20000080#0000040000000000
(434.321908) can0 200#1FC00010000301 R
(434.321920) can0 20000080#0000000000000000
(434.522891) can0 20000080#0000040000000000
(434.523127) can0 20000080#0000040000000000
(434.523162) can0 710#0210035555555555 R
(434.523174) can0 20000080#0000000000000000
(434.524154) can0 77A#065003003201F4AA R
(434.659216) can0 710#03222A2A55555555 R
(434.660942) can0 77A#037F2231AAAAAAAA R
(434.689228) can0 710#0322F18755555555 R
(434.690994) can0 77A#100E62F187344B4C R
(434.693153) can0 710#3000015555555555 R
(434.693410) can0 77A#2139303734363845 R
(434.695871) can0 77A#2220AAAAAAAAAAAA R
(434.723205) can0 710#0322539B55555555 R
(434.724072) can0 77A#0762539B01001401 R
(434.755187) can0 710#0322F19155555555 R
(434.755893) can0 77A#100E62F191344B31 R
(434.758120) can0 710#3000015555555555 R
(434.758367) can0 77A#2139303734363843 R
(434.761625) can0 77A#2220AAAAAAAAAAAA R
(434.884945) can0 710#A8 R
(435.023917) can0 20000080#0000040000000000
(435.024167) can0 20000080#0000040000000000
(435.024204) can0 700#032204A355555555 R
(435.024216) can0 20000080#0000000000000000
(435.025894) can0 77A#10236204A3F1597C R
(435.027731) can0 710#3000055555555555 R
(435.027996) can0 77A#21588800000002DC R
(435.030601) can0 7B4#046204A303AAAAAA R
(435.030824) can0 7B5#046204A303AAAAAA R
(435.035063) can0 7DD#066204A3414800AA R
(435.036542) can0 77A#2288008100C80011 R
(435.038363) can0 778#046204A319AAAAAA R
(435.039930) can0 17FE0080#046204A301000000 R
(435.040279) can0 7E8#046204A303000000 R
(435.043538) can0 77A#230C007000000000 R
(435.050584) can0 77A#2400000000000067 R
(435.056611) can0 77A#2500AAAAAAAAAAAA R
(435.742637) can0 20000080#0000040000000000
(435.742876) can0 20000080#0000040000000000
(435.742911) can0 700#03222A2E55555555 R
(435.742923) can0 20000080#0000000000000000
(435.743911) can0 77A#1103622A2E100100 R
(435.745672) can0 710#3000065555555555 R
(435.745942) can0 77A#2103040506070800 R
(435.750380) can0 7B4#05622A2E4A3EAAAA R
(435.750609) can0 7B5#05622A2E4B3FAAAA R
(435.753610) can0 7DD#1017622A2E73186F R
(435.754671) can0 773#3000065555555555 R
(435.754904) can0 77A#22000B0C000E0F00 R
(435.758061) can0 778#100B622A2E0E8283 R
(435.759690) can0 17FE0080#06622A2E80919200 R
(435.759912) can0 70E#3000065555555555 R
(435.760146) can0 7E8#05622A2E76850000 R
(435.763283) can0 77A#2300121314151600 R
(435.764518) can0 7DD#216D700102A7A8AA R
(435.764742) can0 778#2196979B9899AAAA R
(435.771291) can0 77A#240000001B1C001E R
(435.773209) can0 7DD#22ABA5A60304C300 R
(435.778287) can0 77A#2500000000232400 R
(435.783166) can0 7DD#23000000AAAAAAAA R
(435.786290) can0 77A#26002700002A2B2C R
(435.794711) can0 77A#272D2E0030310000 R
(435.803283) can0 77A#2800000000000000 R
(435.811276) can0 77A#293B000000000041 R
(435.818254) can0 77A#2A42434400464700 R
(435.826270) can0 77A#2B494A4B4C4D4E4F R
(435.834768) can0 77A#2C00000053000000 R
(435.843264) can0 77A#2D57005900000000 R
(435.851257) can0 77A#2E00006061006364 R
(435.858245) can0 77A#2F00006700696A00 R
(435.866265) can0 77A#2000000000000072 R
(435.874764) can0 77A#2173000076777800 R
(435.883250) can0 77A#22007B7C00000080 R
(435.891262) can0 77A#2300000084000087 R
(435.898221) can0 77A#2488898A8B00008E R
(435.906261) can0 77A#258F000000939495 R
(435.914665) can0 77A#260000000000009C R
(435.923224) can0 77A#279D9E00A0000000 R
(435.931227) can0 77A#2800000000000000 R
(435.938213) can0 77A#290000ADAEAFB000 R
(435.946223) can0 77A#2A000000B500B7B8 R
(435.954733) can0 77A#2B00BA0000000000 R
(435.963201) can0 77A#2C00000000C4C5C6 R
(435.971203) can0 77A#2DC7C80000000000 R
(435.978208) can0 77A#2E00000000000000 R
(435.986211) can0 77A#2F00000000000000 R
(435.994644) can0 77A#2000000000000000 R
(436.003199) can0 77A#2100000000000000 R
(436.011191) can0 77A#22000000000000F0 R
(436.018174) can0 77A#23F1F2F300F5F6F7 R
(436.026197) can0 77A#2400000000000000 R
(436.034656) can0 77A#2500AAAAAAAAAAAA R
(437.262940) can0 20000080#0000040000000000
(437.263192) can0 20000080#0000040000000000
(437.263228) can0 700#03222A2655555555 R
(437.263239) can0 20000080#0000000000000000
(437.265564) can0 77A#1023622A26F1597C R
(437.266901) can0 710#3000055555555555 R
(437.267163) can0 77A#21588800000002DC R
(437.268181) can0 7B4#04622A2603AAAAAA R
(437.269795) can0 7B5#04622A2603AAAAAA R
(437.271260) can0 7DD#06622A26414800AA R
(437.275696) can0 77A#2288008100C80011 R
(437.277275) can0 778#04622A2619AAAAAA R
(437.279104) can0 17FE0080#04622A2601000000 R
(437.279463) can0 7E8#04622A2603000000 R
(437.282682) can0 77A#230C007000000000 R
(437.289709) can0 77A#2400000000000067 R
(437.295688) can0 77A#2500AAAAAAAAAAAA R
(437.468853) can0 20000080#0000040000000000
(437.469101) can0 20000080#0000040000000000
(437.469137) can0 700#03222A2855555555 R
(437.469148) can0 20000080#0000000000000000
(437.470457) can0 77A#1023622A28114000 R
(437.471807) can0 710#3000055555555555 R
(437.472078) can0 77A#2100080000000080 R
(437.477200) can0 778#04622A2801AAAAAA R
(437.478037) can0 7B4#04622A2800AAAAAA R
(437.479796) can0 7DD#06622A28000000AA R
(437.480286) can0 7B5#04622A2800AAAAAA R
(437.480616) can0 77A#2280000000000000 R
(437.483811) can0 17FE0080#04622A2800000000 R
(437.484471) can0 7E8#04622A2800000000 R
(437.486592) can0 77A#2308001000000000 R
(437.493895) can0 77A#2400000000000000 R
(437.501626) can0 77A#2500AAAAAAAAAAAA R
(468.867020) can0 7E0#023E000000000000 R
(468.885750) can0 7E8#027E000000000000 R
(468.941496) can0 7E0#0322F19000000000 R
(468.965786) can0 7E8#101462F190575541 R
(468.981001) can0 7E0#3008000000000000 R
(468.990862) can0 7E8#215043424632384E R
(469.000898) can0 7E8#224E393032353333 R
(469.041662) can0 7E0#033E390100000000 R
(469.060918) can0 7E8#027E010000000000 R
(469.081574) can0 7E0#033E308000000000 R
(469.095828) can0 7E8#100B7E018003FF00 R
(469.100954) can0 7E0#3008000000000000 R
(469.110932) can0 7E8#218A5001D2930000 R
(469.257346) can0 7E0#10573E325001D642 R
(469.270944) can0 7E8#3000000000000000 R
(469.281037) can0 7E0#21004F01500002B7 R
(469.290919) can0 7E0#22C4085001024BC4 R
(469.300919) can0 7E0#2302B66002B69C02 R
(469.310907) can0 7E0#24B7A202BA8602C9 R
(469.320905) can0 7E0#25A602CB0C02CC0A R
(469.330900) can0 7E0#2604600102522A02 R
(469.340896) can0 7E0#27566001B6E601B8 R
(469.350890) can0 7E0#2842066002020618 R
(469.360917) can0 7E0#290206F8011C6301 R
(469.367332) can0 7E0#2A1E4901219C0126 R
(469.380912) can0 7E0#2B000270000240EA R
(469.390869) can0 7E0#2C01246500000000 R
(469.405853) can0 7E8#037E004F00000000 R
(470.410904) can0 7E0#023E000000000000 R
(470.425788) can0 7E8#027E000000000000 R
(471.040343) can0 7E0#063E335001D64200 R
(471.055765) can0 7E8#10247E0000E45C00 R
(471.056396) can0 7E0#3008000000000000 R
(471.065800) can0 7E8#21000D100010452F R
(471.075837) can0 7E8#220080650B008000 R
(471.085795) can0 7E8#2380680B001B0000 R
(471.095842) can0 7E8#2401006600010000 R
(471.105751) can0 7E8#2500000000000000 R
(472.120624) can0 7E0#063E335001D64200 R
(472.135528) can0 7E8#10247E0000E45C00 R
(472.140619) can0 7E0#3008000000000000 R
(472.150596) can0 7E8#21000D1000104D2F R
(472.160635) can0 7E8#220080670B008000 R
(472.170635) can0 7E8#2380690B001B0000 R
(472.180621) can0 7E8#2401006600010000 R
(472.190589) can0 7E8#2500000000000000 R
(473.210243) can0 7E0#063E335001D64200 R
(473.225163) can0 7E8#10247E0000E45C00 R
(473.230137) can0 7E0#3008000000000000 R
(473.240271) can0 7E8#21000D100010452F R
(473.250334) can0 7E8#220080680B008000 R
(473.260224) can0 7E8#2380690B001B0000 R
(473.270192) can0 7E8#2401006600010000 R
(473.280265) can0 7E8#2500000000000000 R
(474.299977) can0 7E0#063E335001D64200 R
(474.314891) can0 7E8#10247E0000E45C00 R
(474.319864) can0 7E0#3008000000000000 R
(474.330084) can0 7E8#21000D1000104D2F R
(474.340014) can0 7E8#220080690B008000 R
(474.349964) can0 7E8#2380690B001B0000 R
(474.360008) can0 7E8#2401006600010000 R
(474.370072) can0 7E8#2500000000000000 R
(475.389424) can0 7E0#063E335001D64200 R
(475.404481) can0 7E8#10247E0000E45C00 R
(475.409339) can0 7E0#3008000000000000 R
(475.419596) can0 7E8#21000D100010452F R
(475.429526) can0 7E8#220080690B008000 R
(475.439555) can0 7E8#2380670B001B0000 R
(475.449599) can0 7E8#2401006600010000 R
(475.459526) can0 7E8#2500000000000000 R
(476.478966) can0 7E0#063E335001D64200 R
(476.494042) can0 7E8#10247E0000E45C00 R
(476.498861) can0 7E0#3008000000000000 R
(476.509108) can0 7E8#21000D100010532F R
(476.519136) can0 7E8#220080680B008000 R
(476.529196) can0 7E8#2380680B001B0000 R
(476.539153) can0 7E8#2401006600010000 R
(476.549083) can0 7E8#2500000000000000 R
(477.565104) can0 7E0#063E335001D64200 R
(477.583680) can0 7E8#10247E0000E45C00 R
(477.586698) can0 7E0#3008000000000000 R
(477.598861) can0 7E8#21000D100010452F R
(477.608868) can0 7E8#2200806A0B008000 R
(477.618847) can0 7E8#23806A0B001B0000 R
(477.628804) can0 7E8#2401006600010000 R
(477.638838) can0 7E8#2500000000000000 R
(478.658507) can0 7E0#063E335001D64200 R
(478.673701) can0 7E8#10247E0000E45C00 R
(478.678434) can0 7E0#3008000000000000 R
(478.688846) can0 7E8#21000D100010532F R
(478.698819) can0 7E8#220080680B008000 R
(478.708758) can0 7E8#2380680B001B0000 R
(478.718832) can0 7E8#2401006600010000 R
(478.728886) can0 7E8#2500000000000000 R
(479.748375) can0 7E0#063E335001D64200 R
(479.763577) can0 7E8#10247E0000E45C00 R
(479.768299) can0 7E0#3008000000000000 R
(479.778672) can0 7E8#21000D100010452F R
(479.788645) can0 7E8#220080690B008000 R
(479.798673) can0 7E8#23806A0B001B0000 R
(479.808719) can0 7E8#2401006600010000 R
(479.818717) can0 7E8#2500000000000000 R
(480.838354) can0 7E0#063E335001D64200 R
(480.853480) can0 7E8#10247E0000E45C00 R
(480.858143) can0 7E0#3008000000000000 R
(480.868499) can0 7E8#21000D100010452F R
(480.878558) can0 7E8#2200806A0B008000 R
(480.888606) can0 7E8#2380680B001B0000 R
(480.898583) can0 7E8#2401006600010000 R
(480.908559) can0 7E8#2500000000000000 R
(481.927958) can0 7E0#063E335001D64200 R
(481.943268) can0 7E8#10247E0000E45C00 R
(481.947872) can0 7E0#3008000000000000 R
(481.958365) can0 7E8#21000D100010452F R
(481.968412) can0 7E8#2200806A0B008000 R
(481.978412) can0 7E8#23806A0B001B0000 R
(481.988359) can0 7E8#2401006600010000 R
(481.998424) can0 7E8#2500000000000000 R
(483.018312) can0 7E0#063E335001D64200 R
(483.033632) can0 7E8#10247E0000E45C00 R
(483.038238) can0 7E0#3008000000000000 R
(483.048871) can0 7E8#21000D1000104D2F R
(483.058787) can0 7E8#220080690B008000 R
(483.068737) can0 7E8#23806A0B001B0000 R
(483.078802) can0 7E8#2401006600010000 R
(483.088885) can0 7E8#2500000000000000 R
(484.108837) can0 7E0#063E335001D64200 R
(484.124263) can0 7E8#10247E0000E45C00 R
(484.128810) can0 7E0#3008000000000000 R
(484.139381) can0 7E8#21000D1000104D2F R
(484.149292) can0 7E8#220080680B008000 R
(484.159378) can0 7E8#23806A0B001B0000 R
(484.169433) can0 7E8#2401006600010000 R
(484.179372) can0 7E8#2500000000000000 R
(485.199231) can0 7E0#063E335001D64200 R
(485.214665) can0 7E8#10247E0000E45C00 R
(485.219144) can0 7E0#3008000000000000 R
(485.229752) can0 7E8#21000D1000104D2F R
(485.239782) can0 7E8#220080680B008000 R
(485.249878) can0 7E8#2380680B001B0000 R
(485.259805) can0 7E8#2401006600010000 R
(485.269754) can0 7E8#2500000000000000 R
(486.289066) can0 7E0#063E335001D64200 R
(486.304570) can0 7E8#10247E0000E45C00 R
(486.308992) can0 7E0#3008000000000000 R
(486.319675) can0 7E8#21000D100010452F R
(486.329769) can0 7E8#220080690B008000 R
(486.339685) can0 7E8#23806A0B001B0000 R
(486.349617) can0 7E8#2401006600010000 R
(486.359690) can0 7E8#2500000000000000 R
(487.379128) can0 7E0#063E335001D64200 R
(487.394642) can0 7E8#10247E0000E45C00 R
(487.399160) can0 7E0#3008000000000000 R
(487.409796) can0 7E8#21000D1000104C2F R
(487.419803) can0 7E8#2200806A0B008000 R
(487.429752) can0 7E8#23806A0B001B0000 R
(487.439820) can0 7E8#2401006600010000 R
(487.449831) can0 7E8#2500000000000000 R
(488.468856) can0 7E0#063E335001D64200 R
(488.484417) can0 7E8#10247E0000E45C00 R
(488.488789) can0 7E0#3008000000000000 R
(488.499533) can0 7E8#21000D1000104C2F R
(488.509486) can0 7E8#2200806A0B008000 R
(488.519538) can0 7E8#2380680B001B0000 R
(488.529544) can0 7E8#2401006600010000 R
(488.539570) can0 7E8#2500000000000000 R
(489.558561) can0 7E0#063E335001D64200 R
(489.574149) can0 7E8#10247E0000E45C00 R
(489.578473) can0 7E0#3008000000000000 R
(489.589230) can0 7E8#21000D1000104C2F R
(489.599289) can0 7E8#2200806A0B008000 R
(489.609315) can0 7E8#2380680B001B0000 R
(489.619262) can0 7E8#2401006600010000 R
(489.629231) can0 7E8#2500000000000000 R
(490.648235) can0 7E0#063E335001D64200 R
(490.663806) can0 7E8#10247E0000E45C00 R
(490.668197) can0 7E0#3008000000000000 R
(490.678973) can0 7E8#21000D1000104D2F R
(490.689066) can0 7E8#220080680B008000 R
(490.699013) can0 7E8#2380680B001B0000 R
(490.708962) can0 7E8#2401006600010000 R
(490.719035) can0 7E8#2500000000000000 R
(491.737936) can0 7E0#063E335001D64200 R
(491.753572) can0 7E8#10247E0000E45C00 R
(491.757834) can0 7E0#3008000000000000 R
(491.768754) can0 7E8#21000D1000104D2F R
(491.778734) can0 7E8#2200806A0B008000 R
(491.788692) can0 7E8#23806A0B001B0000 R
(491.798727) can0 7E8#2401006600010000 R
(491.808802) can0 7E8#2500000000000000 R
(492.827621) can0 7E0#063E335001D64200 R
(492.843343) can0 7E8#10247E0000E45C00 R
(492.847536) can0 7E0#3008000000000000 R
(492.858471) can0 7E8#21000D100010452F R
(492.868420) can0 7E8#220080680B008000 R
(492.878487) can0 7E8#2380680B001B0000 R
(492.888493) can0 7E8#2401006600010000 R
(492.898480) can0 7E8#2500000000000000 R
(493.917800) can0 7E0#063E335001D64200 R
(493.933649) can0 7E8#10247E0000E45C00 R
(493.937776) can0 7E0#3008000000000000 R
(493.948665) can0 7E8#21000D1000104C2F R
(493.958722) can0 7E8#2200806A0B008000 R
(493.968761) can0 7E8#23806A0B001B0000 R
(493.978758) can0 7E8#2401006600010000 R
(493.988725) can0 7E8#2500000000000000 R
(495.008223) can0 7E0#063E335001D64200 R
(495.024078) can0 7E8#10247E0000E45C00 R
(495.028155) can0 7E0#3008000000000000 R
(495.039205) can0 7E8#21000D1000104D2F R
(495.049234) can0 7E8#220080690B008000 R
(495.059192) can0 7E8#23806A0B001B0000 R
(495.069130) can0 7E8#2401006600010000 R
(495.079195) can0 7E8#2500000000000000 R
(496.098610) can0 7E0#063E335001D64200 R
(496.114439) can0 7E8#10247E0000E45C00 R
(496.118526) can0 7E0#3008000000000000 R
(496.129521) can0 7E8#21000D1000104D2F R
(496.139618) can0 7E8#220080680B008000 R
(496.149539) can0 7E8#23806A0B001B0000 R
(496.159602) can0 7E8#2401006600010000 R
(496.169570) can0 7E8#2500000000000000 R
(497.188587) can0 7E0#063E335001D64200 R
(497.204513) can0 7E8#10247E0000E45C00 R
(497.208514) can0 7E0#3008000000000000 R
(497.219647) can0 7E8#21000D100010452F R
(497.229596) can0 7E8#2200806A0B008000 R
(497.239654) can0 7E8#2380680B001B0000 R
(497.249659) can0 7E8#2401006600010000 R
(497.259647) can0 7E8#2500000000000000 R
(498.278904) can0 7E0#063E335001D64200 R
(498.294868) can0 7E8#10247E0000E45C00 R
(498.298821) can0 7E0#3008000000000000 R
(498.309919) can0 7E8#21000D1000104D2F R
(498.319936) can0 7E8#220080680B008000 R
(498.329848) can0 7E8#2380690B001B0000 R
(498.340009) can0 7E8#2401006600010000 R
(498.349978) can0 7E8#2500000000000000 R
(499.369242) can0 7E0#063E335001D64200 R
(499.385255) can0 7E8#10247E0000E45C00 R
(499.389197) can0 7E0#3008000000000000 R
(499.400373) can0 7E8#21000D1000104C2F R
(499.410343) can0 7E8#2200806A0B008000 R
(499.420362) can0 7E8#23806A0B001B0000 R
(499.430310) can0 7E8#2401006600010000 R
(499.440383) can0 7E8#2500000000000000 R
(500.459391) can0 7E0#063E335001D64200 R
(500.475509) can0 7E8#10247E0000E45C00 R
(500.479315) can0 7E0#3008000000000000 R
(500.490542) can0 7E8#21000D1000104D2F R
(500.500589) can0 7E8#2200806A0B008000 R
(500.510528) can0 7E8#2380680B001B0000 R
(500.520572) can0 7E8#2401006600010000 R
(500.530444) can0 7E8#2500000000000000 R
(501.549671) can0 7E0#063E335001D64200 R
(501.565584) can0 7E8#10247E0000E45C00 R
(501.579523) can0 7E0#3008000000000000 R
(501.590716) can0 7E8#21000D1000104D2F R
(501.600763) can0 7E8#2200806A0B008000 R
(501.610761) can0 7E8#2380690B001B0000 R
(501.620700) can0 7E8#2401006600010000 R
(501.630696) can0 7E8#2500000000000000 R
(502.649978) can0 7E0#063E335001D64200 R
(502.666105) can0 7E8#10247E0000E45C00 R
(502.669942) can0 7E0#3008000000000000 R
(502.681158) can0 7E8#21000D100010452F R
(502.691295) can0 7E8#2200806A0B008000 R
(502.701265) can0 7E8#2380680B001B0000 R
(502.711185) can0 7E8#2401006600010000 R
(502.721200) can0 7E8#2500000000000000 R
(503.740405) can0 7E0#063E335001D64200 R
(503.756563) can0 7E8#10247E0000E45C00 R
(503.760342) can0 7E0#3008000000000000 R
(503.771658) can0 7E8#21000D100010532F R
(503.781667) can0 7E8#220080680B008000 R
(503.791685) can0 7E8#2380680B001B0000 R
(503.801719) can0 7E8#2401006600010000 R
(503.811678) can0 7E8#2500000000000000 R
(504.830747) can0 7E0#063E335001D64200 R
(504.846943) can0 7E8#10247E0000E45C00 R
(504.850664) can0 7E0#3008000000000000 R
(504.862074) can0 7E8#21000D1000104D2F R
(504.872042) can0 7E8#2200806A0B008000 R
(504.882089) can0 7E8#23806A0B001B0000 R
(504.892125) can0 7E8#2401006600010000 R
(504.902113) can0 7E8#2500000000000000 R
(505.920887) can0 7E0#063E335001D64200 R
(505.937267) can0 7E8#10247E0000E45C00 R
(505.940813) can0 7E0#3008000000000000 R
(505.952255) can0 7E8#21000D1000104C2F R
(505.962253) can0 7E8#220080680B008000 R
(505.972262) can0 7E8#23806A0B001B0000 R
(505.982278) can0 7E8#2401006600010000 R
(505.992244) can0 7E8#2500000000000000 R
(507.011017) can0 7E0#063E335001D64200 R
(507.027329) can0 7E8#10247E0000E45C00 R
(507.030952) can0 7E0#3008000000000000 R
(507.042503) can0 7E8#21000D1000104C2F R
(507.052482) can0 7E8#2200806A0B008000 R
(507.062492) can0 7E8#2380680B001B0000 R
(507.072421) can0 7E8#2401006600010000 R
(507.082494) can0 7E8#2500000000000000 R
(508.101366) can0 7E0#063E335001D64200 R
(508.117687) can0 7E8#10247E0000E45C00 R
(508.121281) can0 7E0#3008000000000000 R
(508.132914) can0 7E8#21000D100010532F R
(508.142857) can0 7E8#2200806A0B008000 R
(508.152816) can0 7E8#23806A0B001B0000 R
(508.162853) can0 7E8#2401006600010000 R
(508.172867) can0 7E8#2500000000000000 R
(509.191519) can0 7E0#063E335001D64200 R
(509.207918) can0 7E8#10247E0000E45C00 R
(509.211484) can0 7E0#3008000000000000 R
(509.223067) can0 7E8#21000D1000104C2F R
(509.233110) can0 7E8#220080680B008000 R
(509.243065) can0 7E8#2380680B001B0000 R
(509.253052) can0 7E8#2401006600010000 R
(509.263048) can0 7E8#2500000000000000 R
(510.281908) can0 7E0#063E335001D64200 R
(510.298354) can0 7E8#10247E0000E45C00 R
(510.301823) can0 7E0#3008000000000000 R
(510.313422) can0 7E8#21000D1000104D2F R
(510.323475) can0 7E8#220080680B008000 R
(510.333524) can0 7E8#23806A0B001B0000 R
(510.343463) can0 7E8#2401006600010000 R
(510.353480) can0 7E8#2500000000000000 R
(511.371971) can0 7E0#063E335001D64200 R
(511.388530) can0 7E8#10247E0000E45C00 R
(511.391914) can0 7E0#3008000000000000 R
(511.403589) can0 7E8#21000D1000104D2F R
(511.413667) can0 7E8#220080680B008000 R
(511.423637) can0 7E8#2380680B001B0000 R
(511.433565) can0 7E8#2401006600010000 R
(511.443609) can0 7E8#2500000000000000 R
(512.462431) can0 7E0#063E335001D64200 R
(512.479009) can0 7E8#10247E0000E45C00 R
(512.482404) can0 7E0#3008000000000000 R
(512.494066) can0 7E8#21000D1000104C2F R
(512.504076) can0 7E8#2200806A0B008000 R
(512.514045) can0 7E8#2380690B001B0000 R
(512.524101) can0 7E8#2401006600010000 R
(512.534164) can0 7E8#2500000000000000 R
(513.552776) can0 7E0#063E335001D64200 R
(513.569383) can0 7E8#10247E0000E45C00 R
(513.572699) can0 7E0#3008000000000000 R
(513.584499) can0 7E8#21000D100010452F R
(513.594437) can0 7E8#220080680B008000 R
(513.604545) can0 7E8#2380680B001B0000 R
(513.614541) can0 7E8#2401006600010000 R
(513.624498) can0 7E8#2500000000000000 R
(514.643165) can0 7E0#063E335001D64200 R
(514.659765) can0 7E8#10247E0000E45C00 R
(514.663092) can0 7E0#3008000000000000 R
(514.674827) can0 7E8#21000D1000104D2F R
(514.684895) can0 7E8#220080690B008000 R
(514.694923) can0 7E8#23806A0B001B0000 R
(514.704949) can0 7E8#2401006600010000 R
(514.714888) can0 7E8#2500000000000000 R
(515.733507) can0 7E0#063E335001D64200 R
(515.750113) can0 7E8#10247E0000E45C00 R
(515.753432) can0 7E0#3008000000000000 R
(515.765275) can0 7E8#21000D100010532F R
(515.775314) can0 7E8#2200806A0B008000 R
(515.785323) can0 7E8#23806A0B001B0000 R
(515.795281) can0 7E8#2401006600010000 R
(515.805307) can0 7E8#2500000000000000 R
(516.823485) can0 7E0#063E335001D64200 R
(516.840141) can0 7E8#10247E0000E45C00 R
(516.843383) can0 7E0#3008000000000000 R
(516.855274) can0 7E8#21000D1000104C2F R
(516.865234) can0 7E8#2200806A0B008000 R
(516.875204) can0 7E8#23806A0B001B0000 R
(516.885248) can0 7E8#2401006600010000 R
(516.895226) can0 7E8#2500000000000000 R
(517.913676) can0 7E0#063E335001D64200 R
(517.930363) can0 7E8#10247E0000E45C00 R
(517.933555) can0 7E0#3008000000000000 R
(517.945468) can0 7E8#21000D1000104D2F R
(517.955487) can0 7E8#2200806A0B008000 R
(517.965456) can0 7E8#23806A0B001B0000 R
(517.975529) can0 7E8#2401006600010000 R
(517.985507) can0 7E8#2500000000000000 R
(519.003627) can0 7E0#063E335001D64200 R
(519.020380) can0 7E8#10247E0000E45C00 R
(519.023551) can0 7E0#3008000000000000 R
(519.035506) can0 7E8#21000D100010452F R
(519.045535) can0 7E8#220080680B008000 R
(519.055553) can0 7E8#2380680B001B0000 R
(519.065483) can0 7E8#2401006600010000 R
(519.075461) can0 7E8#2500000000000000 R
(520.093877) can0 7E0#063E335001D64200 R
(520.110736) can0 7E8#10247E0000E45C00 R
(520.113792) can0 7E0#3008000000000000 R
(520.125809) can0 7E8#21000D1000104D2F R
(520.135885) can0 7E8#220080680B008000 R
(520.145865) can0 7E8#23806A0B001B0000 R
(520.155862) can0 7E8#2401006600010000 R
(520.165839) can0 7E8#2500000000000000 R
(521.183657) can0 7E0#063E335001D64200 R
(521.200516) can0 7E8#10247E0000E45C00 R
(521.203602) can0 7E0#3008000000000000 R
(521.215684) can0 7E8#21000D100010532F R
(521.225672) can0 7E8#2200806A0B008000 R
(521.235611) can0 7E8#23806A0B001B0000 R
(521.245674) can0 7E8#2401006600010000 R
(521.255681) can0 7E8#2500000000000000 R
(522.273747) can0 7E0#063E335001D64200 R
(522.290654) can0 7E8#10247E0000E45C00 R
(522.293672) can0 7E0#3008000000000000 R
(522.305803) can0 7E8#21000D1000104D2F R
(522.315762) can0 7E8#220080680B008000 R
(522.325801) can0 7E8#2380680B001B0000 R
